
T3EB8 000:004 SEGGER J-Link V6.48b Log File (0000ms, 0004ms total)
T3EB8 000:004 DLL Compiled: Aug  2 2019 10:18:25 (0000ms, 0004ms total)
T3EB8 000:004 Logging started @ 2019-09-19 06:49 (0000ms, 0004ms total)
T3EB8 000:004 JLINK_SetWarnOutHandler(...) (0001ms, 0005ms total)
T3EB8 000:005 JLINK_OpenEx(...)
Firmware: J-Link V9 compiled May 17 2019 09:50:41
Hardware: V9.40
S/N: 59400671
Feature(s): RDI, GDB, FlashDL, FlashBP, JFlash
TELNET listener socket opened on port 19021WEBSRV 
Starting webserver (0054ms, 0059ms total)
T3EB8 000:005 WEBSRV Webserver running on local port 19080 (0055ms, 0060ms total)
T3EB8 000:005   returns O.K. (0055ms, 0060ms total)
T3EB8 000:060 JLINK_GetEmuCaps()  returns 0xB9FF7BBF (0000ms, 0060ms total)
T3EB8 000:060 JLINK_TIF_GetAvailable(...) (0000ms, 0060ms total)
T3EB8 000:060 JLINK_SetErrorOutHandler(...) (0000ms, 0060ms total)
T3EB8 000:060 JLINK_ExecCommand("ProjectFile = "E:\workplace\ArduinoCore-imxrt\BA-imxrt\bootloaders\arch_mix\mdk\JLinkSettings.ini"", ...). Ref file found at: D:\Keil_v5\ARM\Segger\JLinkDevices.ref (0003ms, 0063ms total)
T3EB8 000:060 XML referenced by ref file: C:\Program Files (x86)\SEGGER\JLink\JLinkDevices.xml (0003ms, 0063ms total)
T3EB8 000:060 C:\Program Files (x86)\SEGGER\JLink\JLinkDevices.xml evaluated successfully.  returns 0x00 (0166ms, 0226ms total)
T3EB8 000:226 JLINK_ExecCommand("Device = MIMXRT1052DVL6B", ...). Device "MIMXRT1052DVL6B" selected.  returns 0x00 (0008ms, 0234ms total)
T3EB8 000:234 JLINK_ExecCommand("DisableConnectionTimeout", ...).   returns 0x01 (0000ms, 0234ms total)
T3EB8 000:234 JLINK_GetHardwareVersion()  returns 0x16F30 (0000ms, 0234ms total)
T3EB8 000:234 JLINK_GetDLLVersion()  returns 64802 (0000ms, 0234ms total)
T3EB8 000:234 JLINK_GetFirmwareString(...) (0000ms, 0234ms total)
T3EB8 000:234 JLINK_GetDLLVersion()  returns 64802 (0000ms, 0234ms total)
T3EB8 000:234 JLINK_GetCompileDateTime() (0000ms, 0234ms total)
T3EB8 000:234 JLINK_GetFirmwareString(...) (0000ms, 0234ms total)
T3EB8 000:234 JLINK_GetHardwareVersion()  returns 0x16F30 (0000ms, 0234ms total)
T3EB8 000:234 JLINK_TIF_Select(JLINKARM_TIF_SWD)  returns 0x00 (0000ms, 0234ms total)
T3EB8 000:234 JLINK_SetSpeed(5000) (0000ms, 0234ms total)
T3EB8 000:234 JLINK_GetId()InitTarget() start J-Link Script File: Executing InitTarget() (0000ms, 0234ms total)
T3EB8 000:234 InitTarget()_TargetHalt: CPU haltedInitTarget() end >0x10B TIF>Found SW-DP with ID 0x0BD11477 >0x0D TIF> >0x28 TIF> >0x0D TIF> >0x28 TIF> >0x0D TIF> >0x28 TIF> >0x0D TIF> >0x28 TIF> >0x0D TIF> >0x21 TIF> >0x0D TIF> >0x28 TIF>Scanning AP map to find all available APs >0x0D TIF> >0x28 TIF> >0x0D TIF> >0x21 TIF> >0x0D TIF> >0x21 TIF> >0x0D TIF> >0x28 TIF> >0x0D TIF> >0x21 TIF> >0x0D TIF> >0x21 TIF>AP[1]: Stopped AP scan as end of AP map has been reachedAP[0]: AHB-AP (IDR: 0x04770041)
Iterating through AP map to find AHB-AP to use >0x42 TIF> >0x28 TIF> >0x0D TIF> >0x28 TIF> >0x0D TIF> >0x21 TIF> >0x0D TIF> >0x21 TIF> >0x42 TIF> >0x28 TIF> >0x0D TIF> >0x28 TIF> >0x0D TIF> >0x28 TIF> >0x0D TIF> >0x21 TIF> >0x0D TIF> >0x21 TIF>AP[0]: Core foundAP[0]: AHB-AP ROM base: 0xE00FD000 >0x0D TIF> >0x28 TIF> >0x0D TIF> >0x28 TIF> >0x0D TIF> >0x28 TIF> >0x0D TIF> >0x21 TIF> >0x0D TIF> >0x21 TIF>CPUID register: 0x411FC271. Implementer code: 0x41 (ARM)Found Cortex-M7 r1p1, Little endian.
 -- Max. mem block: 0x00010D70 -- CPU_ReadMem(4 bytes @ 0xE000EDF0) -- CPU_ReadMem(4 bytes @ 0xE0002000)FPUnit: 8 code (BP) slots and 0 literal slots -- CPU_ReadMem(4 bytes @ 0xE000EDFC) -- CPU_WriteMem(4 bytes @ 0xE000EDFC) -- CPU_ReadMem(4 bytes @ 0xE0001000) -- CPU_WriteMem(4 bytes @ 0xE0001000) -- CPU_ReadMem(4 bytes @ 0xE000ED88) -- CPU_WriteMem(4 bytes @ 0xE000ED88) -- CPU_ReadMem(4 bytes @ 0xE000ED88) -- CPU_WriteMem(4 bytes @ 0xE000ED88)CoreSight components:ROMTbl[0] @ E00FD000
 -- CPU_ReadMem(16 bytes @ 0xE00FD000) -- CPU_ReadMem(16 bytes @ 0xE00FEFF0) -- CPU_ReadMem(16 bytes @ 0xE00FEFE0)ROMTbl[0][0]: E00FE000, CID: B105100D, PID: 000BB4C8 ROM TableROMTbl[1] @ E00FE000 -- CPU_ReadMem(16 bytes @ 0xE00FE000) -- CPU_ReadMem(16 bytes @ 0xE00FFFF0) -- CPU_ReadMem(16 bytes @ 0xE00FFFE0)ROMTbl[1][0]: E00FF000, CID: B105100D, PID: 000BB4C7 ROM TableROMTbl[2] @ E00FF000 -- CPU_ReadMem(16 bytes @ 0xE00FF000) -- CPU_ReadMem(16 bytes @ 0xE000EFF0) -- CPU_ReadMem(16 bytes @ 0xE000EFE0)
ROMTbl[2][0]: E000E000, CID: B105E00D, PID: 000BB00C SCS-M7 -- CPU_ReadMem(16 bytes @ 0xE0001FF0) -- CPU_ReadMem(16 bytes @ 0xE0001FE0)ROMTbl[2][1]: E0001000, CID: B105E00D, PID: 000BB002 DWT -- CPU_ReadMem(16 bytes @ 0xE0002FF0) -- CPU_ReadMem(16 bytes @ 0xE0002FE0)ROMTbl[2][2]: E0002000, CID: B105E00D, PID: 000BB00E FPB-M7 -- CPU_ReadMem(16 bytes @ 0xE0000FF0) -- CPU_ReadMem(16 bytes @ 0xE0000FE0)ROMTbl[2][3]: E0000000, CID: B105E00D, PID: 000BB001 ITM -- CPU_ReadMem(16 bytes @ 0xE00FF010)
 -- CPU_ReadMem(16 bytes @ 0xE0041FF0) -- CPU_ReadMem(16 bytes @ 0xE0041FE0)ROMTbl[1][1]: E0041000, CID: B105900D, PID: 001BB975 ETM-M7 -- CPU_ReadMem(16 bytes @ 0xE0042FF0) -- CPU_ReadMem(16 bytes @ 0xE0042FE0)ROMTbl[1][2]: E0042000, CID: B105900D, PID: 004BB906 CTI -- CPU_ReadMem(16 bytes @ 0xE00FE010) -- CPU_ReadMem(16 bytes @ 0xE0040FF0) -- CPU_ReadMem(16 bytes @ 0xE0040FE0)ROMTbl[0][1]: E0040000, CID: B105900D, PID: 000BB9A9 TPIU-M7 -- CPU_ReadMem(16 bytes @ 0xE0043FF0)
 -- CPU_ReadMem(16 bytes @ 0xE0043FE0)ROMTbl[0][2]: E0043000, CID: B105F00D, PID: 001BB101 TSG -- CPU_ReadMem(16 bytes @ 0xE00FD010) -- CPU_ReadMem(4 bytes @ 0xE000ED78)Cache: Separate I- and D-cache. (0127ms, 0361ms total)
T3EB8 000:234  -- CPU_WriteMem(4 bytes @ 0xE000ED84) -- CPU_ReadMem(4 bytes @ 0xE000ED80)I-Cache L1: 32 KB, 512 Sets, 32 Bytes/Line, 2-Way -- CPU_WriteMem(4 bytes @ 0xE000ED84) -- CPU_ReadMem(4 bytes @ 0xE000ED80)D-Cache L1: 32 KB, 256 Sets, 32 Bytes/Line, 4-Way >0x0D TIF> >0x21 TIF>  returns 0x0BD11477 (0129ms, 0363ms total)
T3EB8 000:363 JLINK_GetDLLVersion()  returns 64802 (0000ms, 0363ms total)
T3EB8 000:363 JLINK_CORE_GetFound()  returns 0xE0100FF (0000ms, 0363ms total)
T3EB8 000:363 JLINK_GetDebugInfo(0x100 = JLINKARM_ROM_TABLE_ADDR_INDEX) -- Value=0xE00FD000  returns 0x00 (0000ms, 0363ms total)
T3EB8 000:363 JLINK_GetDebugInfo(0x100 = JLINKARM_ROM_TABLE_ADDR_INDEX) -- Value=0xE00FD000  returns 0x00 (0000ms, 0363ms total)
T3EB8 000:363 JLINK_GetDebugInfo(0x101 = JLINKARM_DEBUG_INFO_ETM_ADDR_INDEX) -- Value=0xE0041000  returns 0x00 (0000ms, 0363ms total)
T3EB8 000:363 JLINK_ReadMemEx(0xE0041FD0, 0x0020 Bytes, ..., Flags = 0x02000004) -- CPU_ReadMem(32 bytes @ 0xE0041FD0) - Data: 04 00 00 00 00 00 00 00 00 00 00 00 00 00 00 00 ...  returns 0x20 (0001ms, 0364ms total)
T3EB8 000:364 JLINK_GetDebugInfo(0x102 = JLINKARM_DEBUG_INFO_MTB_ADDR_INDEX) -- Value=0x00000000  returns 0x00 (0000ms, 0364ms total)
T3EB8 000:364 JLINK_GetDebugInfo(0x103 = JLINKARM_DEBUG_INFO_TPIU_ADDR_INDEX) -- Value=0xE0040000  returns 0x00 (0000ms, 0364ms total)
T3EB8 000:364 JLINK_GetDebugInfo(0x104 = JLINKARM_DEBUG_INFO_ITM_ADDR_INDEX) -- Value=0xE0000000  returns 0x00 (0000ms, 0364ms total)
T3EB8 000:364 JLINK_GetDebugInfo(0x105 = JLINKARM_DEBUG_INFO_DWT_ADDR_INDEX) -- Value=0xE0001000  returns 0x00 (0000ms, 0364ms total)
T3EB8 000:364 JLINK_GetDebugInfo(0x106 = JLINKARM_DEBUG_INFO_FPB_ADDR_INDEX) -- Value=0xE0002000  returns 0x00 (0000ms, 0364ms total)
T3EB8 000:364 JLINK_GetDebugInfo(0x107 = JLINKARM_DEBUG_INFO_NVIC_ADDR_INDEX) -- Value=0xE000E000  returns 0x00 (0000ms, 0364ms total)
T3EB8 000:364 JLINK_GetDebugInfo(0x10C = JLINKARM_DEBUG_INFO_DBG_ADDR_INDEX) -- Value=0xE000EDF0  returns 0x00 (0000ms, 0364ms total)
T3EB8 000:364 JLINK_ReadMemU32(0xE000ED00, 0x0001 Items, ...) -- CPU_ReadMem(4 bytes @ 0xE000ED00) - Data: 71 C2 1F 41  returns 1 (0000ms, 0364ms total)
T3EB8 000:364 JLINK_GetDebugInfo(0x10F = JLINKARM_DEBUG_INFO_HAS_CORTEX_M_SECURITY_EXT_INDEX) -- Value=0x00000000  returns 0x00 (0000ms, 0364ms total)
T3EB8 000:364 JLINK_SetResetType(JLINKARM_CM3_RESET_TYPE_CORE)  returns JLINKARM_CM3_RESET_TYPE_NORMAL (0000ms, 0364ms total)
T3EB8 000:364 JLINK_Reset() -- CPU is running -- CPU_WriteMem(4 bytes @ 0xE000EDF0) -- CPU is running -- CPU_WriteMem(4 bytes @ 0xE000EDFC)Reset: Halt core after reset via DEMCR.VC_CORERESET. >0x35 TIF>Reset: Reset device via AIRCR.VECTRESET. -- CPU is running -- CPU_WriteMem(4 bytes @ 0xE000ED0C) -- CPU_ReadMem(4 bytes @ 0xE000EDF0) -- CPU_ReadMem(4 bytes @ 0xE000EDF0) -- CPU is running -- CPU_WriteMem(4 bytes @ 0xE000EDF0) -- CPU is running -- CPU_WriteMem(4 bytes @ 0xE000EDFC)
 -- CPU_ReadMem(4 bytes @ 0xE000EDF0) -- CPU_WriteMem(4 bytes @ 0xE0002000) -- CPU_ReadMem(4 bytes @ 0xE000EDFC) -- CPU_ReadMem(4 bytes @ 0xE0001000) (0012ms, 0376ms total)
T3EB8 000:376 JLINK_ReadReg(R15 (PC))  returns 0x00201414 (0000ms, 0376ms total)
T3EB8 000:376 JLINK_ReadReg(XPSR)  returns 0x01000000 (0000ms, 0376ms total)
T3EB8 000:376 JLINK_Halt()  returns 0x00 (0000ms, 0376ms total)
T3EB8 000:376 JLINK_ReadMemU32(0xE000EDF0, 0x0001 Items, ...) -- CPU_ReadMem(4 bytes @ 0xE000EDF0) - Data: 03 00 03 00  returns 1 (0000ms, 0376ms total)
T3EB8 000:376 JLINK_WriteU32(0xE000EDF0, 0xA05F0003) -- CPU_WriteMem(4 bytes @ 0xE000EDF0)  returns 0 (0001ms, 0377ms total)
T3EB8 000:377 JLINK_WriteU32(0xE000EDFC, 0x01000000) -- CPU_WriteMem(4 bytes @ 0xE000EDFC)  returns 0 (0000ms, 0377ms total)
T3EB8 000:377 JLINK_GetHWStatus(...)  returns 0x00 (0001ms, 0378ms total)
T3EB8 000:378 JLINK_GetNumBPUnits(Type = 0xFFFFFF00)  returns 0x08 (0000ms, 0378ms total)
T3EB8 000:378 JLINK_GetNumBPUnits(Type = 0xF0)  returns 0x2000 (0000ms, 0378ms total)
T3EB8 000:378 JLINK_GetNumWPUnits()  returns 0x04 (0000ms, 0378ms total)
T3EB8 000:378 JLINK_GetSpeed()  returns 0xFA0 (0000ms, 0378ms total)
T3EB8 000:378 JLINK_ReadMemU32(0xE000E004, 0x0001 Items, ...) -- CPU_ReadMem(4 bytes @ 0xE000E004) - Data: 04 00 00 00  returns 1 (0000ms, 0378ms total)
T3EB8 000:378 JLINK_ReadMemU32(0xE000E004, 0x0001 Items, ...) -- CPU_ReadMem(4 bytes @ 0xE000E004) - Data: 04 00 00 00  returns 1 (0001ms, 0379ms total)
T3EB8 000:379 JLINK_WriteMemEx(0xE0001000, 0x001C Bytes, ..., Flags = 0x02000004) - Data: 01 00 00 00 00 00 00 00 00 00 00 00 00 00 00 00 ... -- CPU_WriteMem(28 bytes @ 0xE0001000)  returns 0x1C (0001ms, 0380ms total)
T3EB8 000:380 JLINK_ReadReg(R15 (PC))  returns 0x00201414 (0000ms, 0380ms total)
T3EB8 000:380 JLINK_ReadReg(XPSR)  returns 0x01000000 (0000ms, 0380ms total)
T3EB8 000:523 JLINK_SetResetType(JLINKARM_CM3_RESET_TYPE_CORE)  returns JLINKARM_CM3_RESET_TYPE_CORE (0000ms, 0380ms total)
T3EB8 000:523 JLINK_Reset() -- CPU_WriteMem(4 bytes @ 0xE000EDF0) -- CPU_WriteMem(4 bytes @ 0xE000EDFC)Reset: Halt core after reset via DEMCR.VC_CORERESET. >0x35 TIF>Reset: Reset device via AIRCR.VECTRESET. -- CPU_WriteMem(4 bytes @ 0xE000ED0C) -- CPU_ReadMem(4 bytes @ 0xE000EDF0) -- CPU_ReadMem(4 bytes @ 0xE000EDF0) -- CPU_WriteMem(4 bytes @ 0xE000EDF0) -- CPU_WriteMem(4 bytes @ 0xE000EDFC) -- CPU_ReadMem(4 bytes @ 0xE000EDF0) -- CPU_WriteMem(4 bytes @ 0xE0002000) -- CPU_ReadMem(4 bytes @ 0xE000EDFC)
 -- CPU_ReadMem(4 bytes @ 0xE0001000) (0011ms, 0391ms total)
T3EB8 000:534 JLINK_ReadReg(R15 (PC))  returns 0x00201414 (0000ms, 0391ms total)
T3EB8 000:534 JLINK_ReadReg(XPSR)  returns 0x01000000 (0000ms, 0391ms total)
T3EB8 000:534 JLINK_ReadReg(R0)  returns 0x00000000 (0000ms, 0391ms total)
T3EB8 000:534 JLINK_ReadReg(R1)  returns 0x00000000 (0000ms, 0391ms total)
T3EB8 000:534 JLINK_ReadReg(R2)  returns 0x00000000 (0000ms, 0391ms total)
T3EB8 000:534 JLINK_ReadReg(R3)  returns 0x00000000 (0000ms, 0391ms total)
T3EB8 000:534 JLINK_ReadReg(R4)  returns 0x00000000 (0000ms, 0391ms total)
T3EB8 000:534 JLINK_ReadReg(R5)  returns 0x00000000 (0000ms, 0391ms total)
T3EB8 000:534 JLINK_ReadReg(R6)  returns 0x00000000 (0000ms, 0391ms total)
T3EB8 000:534 JLINK_ReadReg(R7)  returns 0x00000000 (0000ms, 0391ms total)
T3EB8 000:534 JLINK_ReadReg(R8)  returns 0x00000000 (0000ms, 0391ms total)
T3EB8 000:534 JLINK_ReadReg(R9)  returns 0x00000000 (0000ms, 0391ms total)
T3EB8 000:534 JLINK_ReadReg(R10)  returns 0x00000000 (0000ms, 0391ms total)
T3EB8 000:534 JLINK_ReadReg(R11)  returns 0x00000000 (0001ms, 0392ms total)
T3EB8 000:535 JLINK_ReadReg(R12)  returns 0x00000000 (0000ms, 0392ms total)
T3EB8 000:535 JLINK_ReadReg(R13 (SP))  returns 0x20201000 (0000ms, 0392ms total)
T3EB8 000:535 JLINK_ReadReg(R14)  returns 0xFFFFFFFF (0000ms, 0392ms total)
T3EB8 000:535 JLINK_ReadReg(R15 (PC))  returns 0x00201414 (0000ms, 0392ms total)
T3EB8 000:535 JLINK_ReadReg(XPSR)  returns 0x01000000 (0000ms, 0392ms total)
T3EB8 000:535 JLINK_ReadReg(MSP)  returns 0x20201000 (0000ms, 0392ms total)
T3EB8 000:535 JLINK_ReadReg(PSP)  returns 0x00000000 (0000ms, 0392ms total)
T3EB8 000:535 JLINK_ReadReg(CFBP)  returns 0x00000000 (0000ms, 0392ms total)
T3EB8 000:535 JLINK_ReadReg(FPSCR)  returns 0x00000000 (0003ms, 0395ms total)
T3EB8 000:538 JLINK_ReadReg(FPS0)  returns 0x00000000 (0000ms, 0395ms total)
T3EB8 000:538 JLINK_ReadReg(FPS1)  returns 0x00000000 (0000ms, 0395ms total)
T3EB8 000:538 JLINK_ReadReg(FPS2)  returns 0x00000000 (0000ms, 0395ms total)
T3EB8 000:538 JLINK_ReadReg(FPS3)  returns 0x00000000 (0000ms, 0395ms total)
T3EB8 000:538 JLINK_ReadReg(FPS4)  returns 0x00000000 (0000ms, 0395ms total)
T3EB8 000:538 JLINK_ReadReg(FPS5)  returns 0x00000000 (0000ms, 0395ms total)
T3EB8 000:538 JLINK_ReadReg(FPS6)  returns 0x00000000 (0000ms, 0395ms total)
T3EB8 000:538 JLINK_ReadReg(FPS7)  returns 0x00000000 (0001ms, 0396ms total)
T3EB8 000:539 JLINK_ReadReg(FPS8)  returns 0x00000000 (0000ms, 0396ms total)
T3EB8 000:539 JLINK_ReadReg(FPS9)  returns 0x00000000 (0000ms, 0396ms total)
T3EB8 000:539 JLINK_ReadReg(FPS10)  returns 0x00000000 (0000ms, 0396ms total)
T3EB8 000:539 JLINK_ReadReg(FPS11)  returns 0x00000000 (0000ms, 0396ms total)
T3EB8 000:539 JLINK_ReadReg(FPS12)  returns 0x00000000 (0000ms, 0396ms total)
T3EB8 000:539 JLINK_ReadReg(FPS13)  returns 0x00000000 (0000ms, 0396ms total)
T3EB8 000:539 JLINK_ReadReg(FPS14)  returns 0x00000000 (0000ms, 0396ms total)
T3EB8 000:539 JLINK_ReadReg(FPS15)  returns 0xFFFFFFFF (0000ms, 0396ms total)
T3EB8 000:539 JLINK_ReadReg(FPS16)  returns 0x00000000 (0000ms, 0396ms total)
T3EB8 000:539 JLINK_ReadReg(FPS17)  returns 0x00000000 (0000ms, 0396ms total)
T3EB8 000:539 JLINK_ReadReg(FPS18)  returns 0x00000000 (0000ms, 0396ms total)
T3EB8 000:539 JLINK_ReadReg(FPS19)  returns 0x00000000 (0000ms, 0396ms total)
T3EB8 000:539 JLINK_ReadReg(FPS20)  returns 0x00000000 (0000ms, 0396ms total)
T3EB8 000:539 JLINK_ReadReg(FPS21)  returns 0x00000000 (0000ms, 0396ms total)
T3EB8 000:539 JLINK_ReadReg(FPS22)  returns 0x00000000 (0000ms, 0396ms total)
T3EB8 000:539 JLINK_ReadReg(FPS23)  returns 0x00000000 (0000ms, 0396ms total)
T3EB8 000:539 JLINK_ReadReg(FPS24)  returns 0x00000000 (0000ms, 0396ms total)
T3EB8 000:539 JLINK_ReadReg(FPS25)  returns 0x00000000 (0000ms, 0396ms total)
T3EB8 000:539 JLINK_ReadReg(FPS26)  returns 0x00000000 (0000ms, 0396ms total)
T3EB8 000:539 JLINK_ReadReg(FPS27)  returns 0x00000000 (0000ms, 0396ms total)
T3EB8 000:539 JLINK_ReadReg(FPS28)  returns 0x00000000 (0000ms, 0396ms total)
T3EB8 000:539 JLINK_ReadReg(FPS29)  returns 0x00000000 (0000ms, 0396ms total)
T3EB8 000:539 JLINK_ReadReg(FPS30)  returns 0x00000000 (0000ms, 0396ms total)
T3EB8 000:539 JLINK_ReadReg(FPS31)  returns 0xFFFFFFFF (0000ms, 0396ms total)
T3EB8 000:540 JLINK_ReadMemU32(0xE0001004, 0x0001 Items, ...) - Data: 00 00 00 00  returns 1 (0000ms, 0396ms total)
T3EB8 000:540 JLINK_ReadMemEx(0x00201414, 0x003C Bytes, ..., Flags = 0x02000000) -- CPU_ReadMem(60 bytes @ 0x00201414) - Data: 72 B6 0D 48 80 47 0D 48 0D 49 01 60 0D 48 80 47 ...  returns 0x3C (0001ms, 0397ms total)
T0D70 002:738 JLINK_ReadMemEx(0x00201414, 0x0002 Bytes, ..., Flags = 0x02000000) -- CPU_ReadMem(2 bytes @ 0x00201414) - Data: 72 B6  returns 0x02 (0001ms, 0398ms total)
T0D70 002:739 JLINK_SetBPEx(Addr = 0x60009044, Type = 0xFFFFFFF2)  returns 0x00000001 (0000ms, 0398ms total)
T0D70 002:739 JLINK_Go() -- CPU_WriteMem(4 bytes @ 0xE0002000) -- CPU_ReadMem(4 bytes @ 0xE0001000) -- CPU_WriteMem(4 bytes @ 0xE0002008) -- CPU_WriteMem(4 bytes @ 0xE000200C) -- CPU_WriteMem(4 bytes @ 0xE0002010) -- CPU_WriteMem(4 bytes @ 0xE0002014) -- CPU_WriteMem(4 bytes @ 0xE0002018) -- CPU_WriteMem(4 bytes @ 0xE000201C) -- CPU_WriteMem(4 bytes @ 0xE0002020) -- CPU_WriteMem(4 bytes @ 0xE0002024) -- CPU_WriteMem(4 bytes @ 0xE0001004) (0003ms, 0401ms total)
T0D70 002:844 JLINK_IsHalted()  returns TRUE (0002ms, 0403ms total)
T0D70 002:846 JLINK_Halt()  returns 0x00 (0000ms, 0401ms total)
T0D70 002:846 JLINK_IsHalted()  returns TRUE (0000ms, 0401ms total)
T0D70 002:846 JLINK_IsHalted()  returns TRUE (0000ms, 0401ms total)
T0D70 002:846 JLINK_IsHalted()  returns TRUE (0000ms, 0401ms total)
T0D70 002:846 JLINK_ReadReg(R15 (PC))  returns 0x60009044 (0000ms, 0401ms total)
T0D70 002:846 JLINK_ReadReg(XPSR)  returns 0x61000000 (0000ms, 0401ms total)
T0D70 002:846 JLINK_ClrBPEx(BPHandle = 0x00000001)  returns 0x00 (0000ms, 0401ms total)
T0D70 002:846 JLINK_ReadMemU32(0xE000ED30, 0x0001 Items, ...) -- CPU_ReadMem(4 bytes @ 0xE000ED30) - Data: 02 00 00 00  returns 1 (0001ms, 0402ms total)
T0D70 002:847 JLINK_ReadMemU32(0xE0001028, 0x0001 Items, ...) -- CPU_ReadMem(4 bytes @ 0xE0001028) - Data: 00 00 00 00  returns 1 (0000ms, 0402ms total)
T0D70 002:847 JLINK_ReadMemU32(0xE0001038, 0x0001 Items, ...) -- CPU_ReadMem(4 bytes @ 0xE0001038) - Data: 00 02 00 00  returns 1 (0000ms, 0402ms total)
T0D70 002:847 JLINK_ReadMemU32(0xE0001048, 0x0001 Items, ...) -- CPU_ReadMem(4 bytes @ 0xE0001048) - Data: 00 00 00 00  returns 1 (0001ms, 0403ms total)
T0D70 002:848 JLINK_ReadMemU32(0xE0001058, 0x0001 Items, ...) -- CPU_ReadMem(4 bytes @ 0xE0001058) - Data: 00 00 00 00  returns 1 (0000ms, 0403ms total)
T0D70 002:848 JLINK_ReadReg(R0)  returns 0x60009045 (0000ms, 0403ms total)
T0D70 002:848 JLINK_ReadReg(R1)  returns 0x20001768 (0000ms, 0403ms total)
T0D70 002:848 JLINK_ReadReg(R2)  returns 0x00000000 (0000ms, 0403ms total)
T0D70 002:849 JLINK_ReadReg(R3)  returns 0x60008769 (0000ms, 0403ms total)
T0D70 002:849 JLINK_ReadReg(R4)  returns 0x6000972C (0000ms, 0403ms total)
T0D70 002:849 JLINK_ReadReg(R5)  returns 0x6000972C (0000ms, 0403ms total)
T0D70 002:849 JLINK_ReadReg(R6)  returns 0x00200300 (0000ms, 0403ms total)
T0D70 002:849 JLINK_ReadReg(R7)  returns 0x000000F0 (0000ms, 0403ms total)
T0D70 002:849 JLINK_ReadReg(R8)  returns 0x401F4470 (0000ms, 0403ms total)
T0D70 002:849 JLINK_ReadReg(R9)  returns 0x20203A00 (0000ms, 0403ms total)
T0D70 002:849 JLINK_ReadReg(R10)  returns 0x04AF1BBF (0000ms, 0403ms total)
T0D70 002:849 JLINK_ReadReg(R11)  returns 0x00000000 (0000ms, 0403ms total)
T0D70 002:849 JLINK_ReadReg(R12)  returns 0x000001FE (0000ms, 0403ms total)
T0D70 002:849 JLINK_ReadReg(R13 (SP))  returns 0x2001FC00 (0000ms, 0403ms total)
T0D70 002:849 JLINK_ReadReg(R14)  returns 0x60002649 (0000ms, 0403ms total)
T0D70 002:849 JLINK_ReadReg(R15 (PC))  returns 0x60009044 (0000ms, 0403ms total)
T0D70 002:849 JLINK_ReadReg(XPSR)  returns 0x61000000 (0000ms, 0403ms total)
T0D70 002:849 JLINK_ReadReg(MSP)  returns 0x2001FC00 (0001ms, 0404ms total)
T0D70 002:850 JLINK_ReadReg(PSP)  returns 0x2001FC00 (0000ms, 0404ms total)
T0D70 002:850 JLINK_ReadReg(CFBP)  returns 0x00000000 (0000ms, 0404ms total)
T0D70 002:850 JLINK_ReadReg(FPSCR)  returns 0x00000000 (0003ms, 0407ms total)
T0D70 002:853 JLINK_ReadReg(FPS0)  returns 0x00000000 (0000ms, 0407ms total)
T0D70 002:853 JLINK_ReadReg(FPS1)  returns 0x00000000 (0000ms, 0407ms total)
T0D70 002:853 JLINK_ReadReg(FPS2)  returns 0x00000000 (0000ms, 0407ms total)
T0D70 002:853 JLINK_ReadReg(FPS3)  returns 0x00000000 (0000ms, 0407ms total)
T0D70 002:853 JLINK_ReadReg(FPS4)  returns 0x00000000 (0000ms, 0407ms total)
T0D70 002:853 JLINK_ReadReg(FPS5)  returns 0x00000000 (0000ms, 0407ms total)
T0D70 002:853 JLINK_ReadReg(FPS6)  returns 0x00000000 (0000ms, 0407ms total)
T0D70 002:853 JLINK_ReadReg(FPS7)  returns 0x00000000 (0000ms, 0407ms total)
T0D70 002:853 JLINK_ReadReg(FPS8)  returns 0x00000000 (0000ms, 0407ms total)
T0D70 002:853 JLINK_ReadReg(FPS9)  returns 0x00000000 (0000ms, 0407ms total)
T0D70 002:853 JLINK_ReadReg(FPS10)  returns 0x00000000 (0000ms, 0407ms total)
T0D70 002:853 JLINK_ReadReg(FPS11)  returns 0x00000000 (0000ms, 0407ms total)
T0D70 002:853 JLINK_ReadReg(FPS12)  returns 0x00000000 (0001ms, 0408ms total)
T0D70 002:854 JLINK_ReadReg(FPS13)  returns 0x00000000 (0000ms, 0408ms total)
T0D70 002:854 JLINK_ReadReg(FPS14)  returns 0x00000000 (0000ms, 0408ms total)
T0D70 002:854 JLINK_ReadReg(FPS15)  returns 0xFFFFFFFF (0000ms, 0408ms total)
T0D70 002:854 JLINK_ReadReg(FPS16)  returns 0x00000000 (0000ms, 0408ms total)
T0D70 002:854 JLINK_ReadReg(FPS17)  returns 0x00000000 (0000ms, 0408ms total)
T0D70 002:854 JLINK_ReadReg(FPS18)  returns 0x00000000 (0000ms, 0408ms total)
T0D70 002:854 JLINK_ReadReg(FPS19)  returns 0x00000000 (0000ms, 0408ms total)
T0D70 002:854 JLINK_ReadReg(FPS20)  returns 0x00000000 (0000ms, 0408ms total)
T0D70 002:854 JLINK_ReadReg(FPS21)  returns 0x00000000 (0000ms, 0408ms total)
T0D70 002:854 JLINK_ReadReg(FPS22)  returns 0x00000000 (0000ms, 0408ms total)
T0D70 002:854 JLINK_ReadReg(FPS23)  returns 0x00000000 (0000ms, 0408ms total)
T0D70 002:854 JLINK_ReadReg(FPS24)  returns 0x00000000 (0000ms, 0408ms total)
T0D70 002:854 JLINK_ReadReg(FPS25)  returns 0x00000000 (0000ms, 0408ms total)
T0D70 002:854 JLINK_ReadReg(FPS26)  returns 0x00000000 (0001ms, 0409ms total)
T0D70 002:855 JLINK_ReadReg(FPS27)  returns 0x00000000 (0000ms, 0409ms total)
T0D70 002:855 JLINK_ReadReg(FPS28)  returns 0x00000000 (0000ms, 0409ms total)
T0D70 002:855 JLINK_ReadReg(FPS29)  returns 0x00000000 (0000ms, 0409ms total)
T0D70 002:855 JLINK_ReadReg(FPS30)  returns 0x00000000 (0000ms, 0409ms total)
T0D70 002:855 JLINK_ReadReg(FPS31)  returns 0xFFFFFFFF (0000ms, 0409ms total)
T3EB8 002:923 JLINK_ReadMemU32(0xE0001004, 0x0001 Items, ...) -- CPU_ReadMem(4 bytes @ 0xE0001004) - Data: AB 5D 08 00  returns 1 (0000ms, 0409ms total)
T3EB8 002:929 JLINK_ReadMemEx(0x60008F44, 0x003C Bytes, ..., Flags = 0x02000000) -- CPU_ReadMem(64 bytes @ 0x60008F40) -- Updating C cache (64 bytes @ 0x60008F40) -- Read from C cache (60 bytes @ 0x60008F44) - Data: 33 FA FB F7 5D FA 64 20 06 49 08 80 48 46 BD E8 ...  returns 0x3C (0001ms, 0410ms total)
T3EB8 002:930 JLINK_ReadMemEx(0x60008F80, 0x003C Bytes, ..., Flags = 0x02000000) -- CPU_ReadMem(64 bytes @ 0x60008F80) -- Updating C cache (64 bytes @ 0x60008F80) -- Read from C cache (60 bytes @ 0x60008F80) - Data: 2E 68 04 E0 02 2C 01 D1 2E 88 00 E0 2E 78 0D F1 ...  returns 0x3C (0000ms, 0410ms total)
T3EB8 002:930 JLINK_ReadMemEx(0x60008FBC, 0x003C Bytes, ..., Flags = 0x02000000) -- CPU_ReadMem(64 bytes @ 0x60008FC0) -- Updating C cache (64 bytes @ 0x60008FC0) -- Read from C cache (60 bytes @ 0x60008FBC) - Data: A8 F1 01 08 09 F1 01 09 B9 EB 44 0F EA D3 30 20 ...  returns 0x3C (0001ms, 0411ms total)
T3EB8 002:931 JLINK_ReadMemEx(0x60008FF8, 0x0008 Bytes, ..., Flags = 0x02000000) -- Read from C cache (8 bytes @ 0x60008FF8) - Data: 00 68 FF F7 85 FF 05 E0  returns 0x08 (0000ms, 0411ms total)
T3EB8 002:931 JLINK_ReadMemEx(0x60009000, 0x0034 Bytes, ..., Flags = 0x02000000) -- CPU_ReadMem(64 bytes @ 0x60009000) -- Updating C cache (64 bytes @ 0x60009000) -- Read from C cache (52 bytes @ 0x60009000) - Data: 22 46 29 46 03 48 00 68 FF F7 7E FF BD E8 FE 83 ...  returns 0x34 (0001ms, 0412ms total)
T3EB8 002:932 JLINK_ReadMemEx(0x60009034, 0x003C Bytes, ..., Flags = 0x02000000) -- CPU_ReadMem(64 bytes @ 0x60009040) -- Updating C cache (64 bytes @ 0x60009040) -- Read from C cache (60 bytes @ 0x60009034) - Data: 64 20 02 49 08 80 38 46 BD E8 F0 81 66 06 00 20 ...  returns 0x3C (0000ms, 0412ms total)
T0D70 004:277 JLINK_ReadMemEx(0x60009044, 0x0002 Bytes, ..., Flags = 0x02000000) -- Read from C cache (2 bytes @ 0x60009044) - Data: F9 F7  returns 0x02 (0000ms, 0412ms total)
T0D70 004:277 JLINK_Step() -- Read from C cache (2 bytes @ 0x60009044) -- CPU_ReadMem(4 bytes @ 0xE000ED18) -- CPU_WriteMem(4 bytes @ 0xE000ED18) -- CPU_ReadMem(4 bytes @ 0xE000ED18) -- CPU_WriteMem(4 bytes @ 0xE000ED18) -- Read from C cache (2 bytes @ 0x60009046) -- Simulated  returns 0x00 (0003ms, 0415ms total)
T0D70 004:280 JLINK_ReadReg(R15 (PC))  returns 0x60002CEC (0000ms, 0415ms total)
T0D70 004:280 JLINK_ReadReg(XPSR)  returns 0x61000000 (0000ms, 0415ms total)
T0D70 004:280 JLINK_ReadReg(R0)  returns 0x60009045 (0000ms, 0415ms total)
T0D70 004:280 JLINK_ReadReg(R1)  returns 0x20001768 (0000ms, 0415ms total)
T0D70 004:280 JLINK_ReadReg(R2)  returns 0x00000000 (0000ms, 0415ms total)
T0D70 004:280 JLINK_ReadReg(R3)  returns 0x60008769 (0000ms, 0415ms total)
T0D70 004:280 JLINK_ReadReg(R4)  returns 0x6000972C (0000ms, 0415ms total)
T0D70 004:280 JLINK_ReadReg(R5)  returns 0x6000972C (0000ms, 0415ms total)
T0D70 004:280 JLINK_ReadReg(R6)  returns 0x00200300 (0000ms, 0415ms total)
T0D70 004:280 JLINK_ReadReg(R7)  returns 0x000000F0 (0000ms, 0415ms total)
T0D70 004:280 JLINK_ReadReg(R8)  returns 0x401F4470 (0000ms, 0415ms total)
T0D70 004:280 JLINK_ReadReg(R9)  returns 0x20203A00 (0000ms, 0415ms total)
T0D70 004:280 JLINK_ReadReg(R10)  returns 0x04AF1BBF (0000ms, 0415ms total)
T0D70 004:280 JLINK_ReadReg(R11)  returns 0x00000000 (0000ms, 0415ms total)
T0D70 004:281 JLINK_ReadReg(R12)  returns 0x000001FE (0000ms, 0415ms total)
T0D70 004:281 JLINK_ReadReg(R13 (SP))  returns 0x2001FC00 (0000ms, 0415ms total)
T0D70 004:281 JLINK_ReadReg(R14)  returns 0x60009049 (0000ms, 0415ms total)
T0D70 004:281 JLINK_ReadReg(R15 (PC))  returns 0x60002CEC (0000ms, 0415ms total)
T0D70 004:281 JLINK_ReadReg(XPSR)  returns 0x61000000 (0000ms, 0415ms total)
T0D70 004:281 JLINK_ReadReg(MSP)  returns 0x2001FC00 (0000ms, 0415ms total)
T0D70 004:281 JLINK_ReadReg(PSP)  returns 0x2001FC00 (0000ms, 0415ms total)
T0D70 004:281 JLINK_ReadReg(CFBP)  returns 0x00000000 (0000ms, 0415ms total)
T0D70 004:281 JLINK_ReadReg(FPSCR)  returns 0x00000000 (0000ms, 0415ms total)
T0D70 004:281 JLINK_ReadReg(FPS0)  returns 0x00000000 (0000ms, 0415ms total)
T0D70 004:281 JLINK_ReadReg(FPS1)  returns 0x00000000 (0000ms, 0415ms total)
T0D70 004:281 JLINK_ReadReg(FPS2)  returns 0x00000000 (0000ms, 0415ms total)
T0D70 004:281 JLINK_ReadReg(FPS3)  returns 0x00000000 (0000ms, 0415ms total)
T0D70 004:281 JLINK_ReadReg(FPS4)  returns 0x00000000 (0000ms, 0415ms total)
T0D70 004:281 JLINK_ReadReg(FPS5)  returns 0x00000000 (0000ms, 0415ms total)
T0D70 004:281 JLINK_ReadReg(FPS6)  returns 0x00000000 (0000ms, 0415ms total)
T0D70 004:281 JLINK_ReadReg(FPS7)  returns 0x00000000 (0000ms, 0415ms total)
T0D70 004:281 JLINK_ReadReg(FPS8)  returns 0x00000000 (0000ms, 0415ms total)
T0D70 004:281 JLINK_ReadReg(FPS9)  returns 0x00000000 (0000ms, 0415ms total)
T0D70 004:281 JLINK_ReadReg(FPS10)  returns 0x00000000 (0000ms, 0415ms total)
T0D70 004:281 JLINK_ReadReg(FPS11)  returns 0x00000000 (0000ms, 0415ms total)
T0D70 004:281 JLINK_ReadReg(FPS12)  returns 0x00000000 (0001ms, 0416ms total)
T0D70 004:282 JLINK_ReadReg(FPS13)  returns 0x00000000 (0000ms, 0416ms total)
T0D70 004:282 JLINK_ReadReg(FPS14)  returns 0x00000000 (0000ms, 0416ms total)
T0D70 004:282 JLINK_ReadReg(FPS15)  returns 0xFFFFFFFF (0000ms, 0416ms total)
T0D70 004:282 JLINK_ReadReg(FPS16)  returns 0x00000000 (0000ms, 0416ms total)
T0D70 004:282 JLINK_ReadReg(FPS17)  returns 0x00000000 (0000ms, 0416ms total)
T0D70 004:282 JLINK_ReadReg(FPS18)  returns 0x00000000 (0000ms, 0416ms total)
T0D70 004:282 JLINK_ReadReg(FPS19)  returns 0x00000000 (0000ms, 0416ms total)
T0D70 004:282 JLINK_ReadReg(FPS20)  returns 0x00000000 (0000ms, 0416ms total)
T0D70 004:282 JLINK_ReadReg(FPS21)  returns 0x00000000 (0000ms, 0416ms total)
T0D70 004:282 JLINK_ReadReg(FPS22)  returns 0x00000000 (0000ms, 0416ms total)
T0D70 004:282 JLINK_ReadReg(FPS23)  returns 0x00000000 (0000ms, 0416ms total)
T0D70 004:282 JLINK_ReadReg(FPS24)  returns 0x00000000 (0000ms, 0416ms total)
T0D70 004:282 JLINK_ReadReg(FPS25)  returns 0x00000000 (0000ms, 0416ms total)
T0D70 004:282 JLINK_ReadReg(FPS26)  returns 0x00000000 (0000ms, 0416ms total)
T0D70 004:282 JLINK_ReadReg(FPS27)  returns 0x00000000 (0000ms, 0416ms total)
T0D70 004:282 JLINK_ReadReg(FPS28)  returns 0x00000000 (0000ms, 0416ms total)
T0D70 004:282 JLINK_ReadReg(FPS29)  returns 0x00000000 (0000ms, 0416ms total)
T0D70 004:282 JLINK_ReadReg(FPS30)  returns 0x00000000 (0000ms, 0416ms total)
T0D70 004:282 JLINK_ReadReg(FPS31)  returns 0xFFFFFFFF (0000ms, 0416ms total)
T3EB8 004:286 JLINK_ReadMemU32(0xE0001004, 0x0001 Items, ...) - Data: AC 5D 08 00  returns 1 (0000ms, 0416ms total)
T3EB8 004:292 JLINK_ReadMemEx(0x60002BEC, 0x0014 Bytes, ..., Flags = 0x02000000) -- CPU_ReadMem(64 bytes @ 0x60002BC0) -- Updating C cache (64 bytes @ 0x60002BC0) -- Read from C cache (20 bytes @ 0x60002BEC) - Data: 08 46 00 6E 20 F4 60 00 08 66 08 46 00 6E 20 F4 ...  returns 0x14 (0001ms, 0417ms total)
T3EB8 004:293 JLINK_ReadMemEx(0x60002C00, 0x0028 Bytes, ..., Flags = 0x02000000) -- CPU_ReadMem(64 bytes @ 0x60002C00) -- Updating C cache (64 bytes @ 0x60002C00) -- Read from C cache (40 bytes @ 0x60002C00) - Data: 90 10 08 66 08 46 00 6E 20 F4 80 70 08 66 08 46 ...  returns 0x28 (0000ms, 0417ms total)
T3EB8 004:293 JLINK_ReadMemEx(0x60002C28, 0x003C Bytes, ..., Flags = 0x02000000) -- CPU_ReadMem(64 bytes @ 0x60002C40) -- Updating C cache (64 bytes @ 0x60002C40) -- Read from C cache (60 bytes @ 0x60002C28) - Data: 01 F0 97 FB 00 22 03 21 2A 48 01 F0 92 FB 00 22 ...  returns 0x3C (0001ms, 0418ms total)
T3EB8 004:294 JLINK_ReadMemEx(0x60002C64, 0x003C Bytes, ..., Flags = 0x02000000) -- CPU_ReadMem(64 bytes @ 0x60002C80) -- Updating C cache (64 bytes @ 0x60002C80) -- Read from C cache (60 bytes @ 0x60002C64) - Data: 80 63 03 EA 80 63 13 43 4F F4 7F 04 04 EA 01 44 ...  returns 0x3C (0001ms, 0419ms total)
T3EB8 004:295 JLINK_ReadMemEx(0x60002CA0, 0x003C Bytes, ..., Flags = 0x02000000) -- CPU_ReadMem(64 bytes @ 0x60002CC0) -- Updating C cache (64 bytes @ 0x60002CC0) -- Read from C cache (60 bytes @ 0x60002CA0) - Data: 0E 48 40 69 20 F0 80 50 0C 49 48 61 08 46 40 69 ...  returns 0x3C (0000ms, 0419ms total)
T3EB8 004:295 JLINK_ReadMemEx(0x60002CEA, 0x0002 Bytes, ..., Flags = 0x02000000) -- Read from C cache (2 bytes @ 0x60002CEA) - Data: 00 20  returns 0x02 (0000ms, 0419ms total)
T3EB8 004:295 JLINK_ReadMemEx(0x60002CEC, 0x003C Bytes, ..., Flags = 0x02000000) -- CPU_ReadMem(64 bytes @ 0x60002D00) -- Updating C cache (64 bytes @ 0x60002D00) -- Read from C cache (60 bytes @ 0x60002CEC) - Data: 10 B5 60 48 00 68 00 F4 00 30 B0 F5 00 3F 2B D1 ...  returns 0x3C (0001ms, 0420ms total)
T0D70 005:014 JLINK_ReadMemEx(0x60002CEC, 0x0002 Bytes, ..., Flags = 0x02000000) -- Read from C cache (2 bytes @ 0x60002CEC) - Data: 10 B5  returns 0x02 (0000ms, 0420ms total)
T0D70 005:014 JLINK_Step() -- Read from C cache (2 bytes @ 0x60002CEC) -- CPU_WriteMem(8 bytes @ 0x2001FBF8) -- Simulated  returns 0x00 (0001ms, 0421ms total)
T0D70 005:015 JLINK_ReadReg(R15 (PC))  returns 0x60002CEE (0000ms, 0421ms total)
T0D70 005:015 JLINK_ReadReg(XPSR)  returns 0x61000000 (0000ms, 0421ms total)
T0D70 005:015 JLINK_ReadReg(R0)  returns 0x60009045 (0000ms, 0421ms total)
T0D70 005:015 JLINK_ReadReg(R1)  returns 0x20001768 (0001ms, 0422ms total)
T0D70 005:016 JLINK_ReadReg(R2)  returns 0x00000000 (0000ms, 0422ms total)
T0D70 005:016 JLINK_ReadReg(R3)  returns 0x60008769 (0000ms, 0422ms total)
T0D70 005:016 JLINK_ReadReg(R4)  returns 0x6000972C (0000ms, 0422ms total)
T0D70 005:016 JLINK_ReadReg(R5)  returns 0x6000972C (0000ms, 0422ms total)
T0D70 005:016 JLINK_ReadReg(R6)  returns 0x00200300 (0000ms, 0422ms total)
T0D70 005:016 JLINK_ReadReg(R7)  returns 0x000000F0 (0000ms, 0422ms total)
T0D70 005:016 JLINK_ReadReg(R8)  returns 0x401F4470 (0000ms, 0422ms total)
T0D70 005:016 JLINK_ReadReg(R9)  returns 0x20203A00 (0000ms, 0422ms total)
T0D70 005:016 JLINK_ReadReg(R10)  returns 0x04AF1BBF (0000ms, 0422ms total)
T0D70 005:016 JLINK_ReadReg(R11)  returns 0x00000000 (0000ms, 0422ms total)
T0D70 005:016 JLINK_ReadReg(R12)  returns 0x000001FE (0000ms, 0422ms total)
T0D70 005:016 JLINK_ReadReg(R13 (SP))  returns 0x2001FBF8 (0000ms, 0422ms total)
T0D70 005:016 JLINK_ReadReg(R14)  returns 0x60009049 (0000ms, 0422ms total)
T0D70 005:016 JLINK_ReadReg(R15 (PC))  returns 0x60002CEE (0000ms, 0422ms total)
T0D70 005:016 JLINK_ReadReg(XPSR)  returns 0x61000000 (0000ms, 0422ms total)
T0D70 005:016 JLINK_ReadReg(MSP)  returns 0x2001FBF8 (0000ms, 0422ms total)
T0D70 005:016 JLINK_ReadReg(PSP)  returns 0x2001FC00 (0000ms, 0422ms total)
T0D70 005:016 JLINK_ReadReg(CFBP)  returns 0x00000000 (0000ms, 0422ms total)
T0D70 005:016 JLINK_ReadReg(FPSCR)  returns 0x00000000 (0000ms, 0422ms total)
T0D70 005:016 JLINK_ReadReg(FPS0)  returns 0x00000000 (0000ms, 0422ms total)
T0D70 005:016 JLINK_ReadReg(FPS1)  returns 0x00000000 (0000ms, 0422ms total)
T0D70 005:016 JLINK_ReadReg(FPS2)  returns 0x00000000 (0000ms, 0422ms total)
T0D70 005:017 JLINK_ReadReg(FPS3)  returns 0x00000000 (0000ms, 0422ms total)
T0D70 005:017 JLINK_ReadReg(FPS4)  returns 0x00000000 (0000ms, 0422ms total)
T0D70 005:017 JLINK_ReadReg(FPS5)  returns 0x00000000 (0000ms, 0422ms total)
T0D70 005:017 JLINK_ReadReg(FPS6)  returns 0x00000000 (0000ms, 0422ms total)
T0D70 005:017 JLINK_ReadReg(FPS7)  returns 0x00000000 (0000ms, 0422ms total)
T0D70 005:017 JLINK_ReadReg(FPS8)  returns 0x00000000 (0000ms, 0422ms total)
T0D70 005:017 JLINK_ReadReg(FPS9)  returns 0x00000000 (0000ms, 0422ms total)
T0D70 005:017 JLINK_ReadReg(FPS10)  returns 0x00000000 (0000ms, 0422ms total)
T0D70 005:017 JLINK_ReadReg(FPS11)  returns 0x00000000 (0000ms, 0422ms total)
T0D70 005:017 JLINK_ReadReg(FPS12)  returns 0x00000000 (0000ms, 0422ms total)
T0D70 005:017 JLINK_ReadReg(FPS13)  returns 0x00000000 (0000ms, 0422ms total)
T0D70 005:017 JLINK_ReadReg(FPS14)  returns 0x00000000 (0000ms, 0422ms total)
T0D70 005:017 JLINK_ReadReg(FPS15)  returns 0xFFFFFFFF (0000ms, 0422ms total)
T0D70 005:017 JLINK_ReadReg(FPS16)  returns 0x00000000 (0000ms, 0422ms total)
T0D70 005:017 JLINK_ReadReg(FPS17)  returns 0x00000000 (0000ms, 0422ms total)
T0D70 005:017 JLINK_ReadReg(FPS18)  returns 0x00000000 (0000ms, 0422ms total)
T0D70 005:017 JLINK_ReadReg(FPS19)  returns 0x00000000 (0000ms, 0422ms total)
T0D70 005:017 JLINK_ReadReg(FPS20)  returns 0x00000000 (0000ms, 0422ms total)
T0D70 005:017 JLINK_ReadReg(FPS21)  returns 0x00000000 (0000ms, 0422ms total)
T0D70 005:017 JLINK_ReadReg(FPS22)  returns 0x00000000 (0000ms, 0422ms total)
T0D70 005:017 JLINK_ReadReg(FPS23)  returns 0x00000000 (0000ms, 0422ms total)
T0D70 005:017 JLINK_ReadReg(FPS24)  returns 0x00000000 (0000ms, 0422ms total)
T0D70 005:017 JLINK_ReadReg(FPS25)  returns 0x00000000 (0000ms, 0422ms total)
T0D70 005:017 JLINK_ReadReg(FPS26)  returns 0x00000000 (0001ms, 0423ms total)
T0D70 005:018 JLINK_ReadReg(FPS27)  returns 0x00000000 (0000ms, 0423ms total)
T0D70 005:018 JLINK_ReadReg(FPS28)  returns 0x00000000 (0000ms, 0423ms total)
T0D70 005:018 JLINK_ReadReg(FPS29)  returns 0x00000000 (0000ms, 0423ms total)
T0D70 005:018 JLINK_ReadReg(FPS30)  returns 0x00000000 (0000ms, 0423ms total)
T0D70 005:018 JLINK_ReadReg(FPS31)  returns 0xFFFFFFFF (0000ms, 0423ms total)
T3EB8 005:018 JLINK_ReadMemEx(0x2001FBFC, 0x0004 Bytes, ..., Flags = 0x02000000) -- CPU_ReadMem(64 bytes @ 0x2001FBC0) -- Updating C cache (64 bytes @ 0x2001FBC0) -- Read from C cache (4 bytes @ 0x2001FBFC) - Data: 49 90 00 60  returns 0x04 (0001ms, 0424ms total)
T3EB8 005:019 JLINK_ReadMemEx(0x2001FBF8, 0x0004 Bytes, ..., Flags = 0x02000000) -- Read from C cache (4 bytes @ 0x2001FBF8) - Data: 2C 97 00 60  returns 0x04 (0000ms, 0424ms total)
T3EB8 005:019 JLINK_ReadMemU32(0xE0001004, 0x0001 Items, ...) - Data: AF 5D 08 00  returns 1 (0000ms, 0424ms total)
T3EB8 005:023 JLINK_ReadMemEx(0x60002CEC, 0x003C Bytes, ..., Flags = 0x02000000) -- Read from C cache (60 bytes @ 0x60002CEC) - Data: 10 B5 60 48 00 68 00 F4 00 30 B0 F5 00 3F 2B D1 ...  returns 0x3C (0000ms, 0424ms total)
T0D70 005:566 JLINK_ReadMemEx(0x60002CEE, 0x0002 Bytes, ..., Flags = 0x02000000) -- Read from C cache (2 bytes @ 0x60002CEE) - Data: 60 48  returns 0x02 (0000ms, 0424ms total)
T0D70 005:566 JLINK_Step() -- Read from C cache (2 bytes @ 0x60002CEE) -- CPU_ReadMem(64 bytes @ 0x60002E40) -- Updating C cache (64 bytes @ 0x60002E40) -- Read from C cache (4 bytes @ 0x60002E70) -- Simulated  returns 0x00 (0001ms, 0425ms total)
T0D70 005:567 JLINK_ReadReg(R15 (PC))  returns 0x60002CF0 (0000ms, 0425ms total)
T0D70 005:567 JLINK_ReadReg(XPSR)  returns 0x61000000 (0000ms, 0425ms total)
T0D70 005:567 JLINK_Step() -- Read from C cache (2 bytes @ 0x60002CF0) -- Not simulated -- CPU_WriteMem(4 bytes @ 0xE0002008) -- CPU_WriteMem(4 bytes @ 0xE0001004)  returns 0x00 (0007ms, 0432ms total)
T0D70 005:574 JLINK_ReadReg(R15 (PC))  returns 0x60002CF2 (0000ms, 0432ms total)
T0D70 005:574 JLINK_ReadReg(XPSR)  returns 0x61000000 (0000ms, 0432ms total)
T0D70 005:574 JLINK_Step() -- CPU_ReadMem(64 bytes @ 0x60002CC0) -- Updating C cache (64 bytes @ 0x60002CC0) -- Read from C cache (2 bytes @ 0x60002CF2) -- CPU_ReadMem(4 bytes @ 0xE0001004) -- Read from C cache (2 bytes @ 0x60002CF4) -- Simulated  returns 0x00 (0001ms, 0433ms total)
T0D70 005:575 JLINK_ReadReg(R15 (PC))  returns 0x60002CF6 (0000ms, 0433ms total)
T0D70 005:575 JLINK_ReadReg(XPSR)  returns 0x61000000 (0000ms, 0433ms total)
T0D70 005:575 JLINK_ReadMemEx(0x60002CF4, 0x003C Bytes, ..., Flags = 0x02000000) -- CPU_ReadMem(64 bytes @ 0x60002D00) -- Updating C cache (64 bytes @ 0x60002D00) -- Read from C cache (60 bytes @ 0x60002CF4) - Data: 00 30 B0 F5 00 3F 2B D1 00 BF 00 BF 00 BF 00 BF ...  returns 0x3C (0001ms, 0434ms total)
T0D70 005:576 JLINK_ReadMemEx(0x60002CF4, 0x0002 Bytes, ..., Flags = 0x02000000) -- Read from C cache (2 bytes @ 0x60002CF4) - Data: 00 30  returns 0x02 (0000ms, 0434ms total)
T0D70 005:576 JLINK_ReadMemEx(0x60002CF6, 0x0002 Bytes, ..., Flags = 0x02000000) -- Read from C cache (2 bytes @ 0x60002CF6) - Data: B0 F5  returns 0x02 (0000ms, 0434ms total)
T0D70 005:576 JLINK_ReadMemEx(0x60002CF6, 0x0002 Bytes, ..., Flags = 0x02000000) -- Read from C cache (2 bytes @ 0x60002CF6) - Data: B0 F5  returns 0x02 (0000ms, 0434ms total)
T0D70 005:576 JLINK_ReadMemEx(0x60002CF8, 0x003C Bytes, ..., Flags = 0x02000000) -- Read from C cache (60 bytes @ 0x60002CF8) - Data: 00 3F 2B D1 00 BF 00 BF 00 BF 00 BF 00 BF BF F3 ...  returns 0x3C (0000ms, 0434ms total)
T0D70 005:576 JLINK_ReadMemEx(0x60002CF8, 0x0002 Bytes, ..., Flags = 0x02000000) -- Read from C cache (2 bytes @ 0x60002CF8) - Data: 00 3F  returns 0x02 (0000ms, 0434ms total)
T0D70 005:576 JLINK_Step() -- Read from C cache (2 bytes @ 0x60002CF6) -- Read from C cache (2 bytes @ 0x60002CF8) -- Simulated  returns 0x00 (0000ms, 0434ms total)
T0D70 005:576 JLINK_ReadReg(R15 (PC))  returns 0x60002CFA (0000ms, 0434ms total)
T0D70 005:576 JLINK_ReadReg(XPSR)  returns 0x61000000 (0000ms, 0434ms total)
T0D70 005:576 JLINK_ReadMemEx(0x60002CF8, 0x003C Bytes, ..., Flags = 0x02000000) -- Read from C cache (60 bytes @ 0x60002CF8) - Data: 00 3F 2B D1 00 BF 00 BF 00 BF 00 BF 00 BF BF F3 ...  returns 0x3C (0000ms, 0434ms total)
T0D70 005:576 JLINK_ReadMemEx(0x60002CF8, 0x0002 Bytes, ..., Flags = 0x02000000) -- Read from C cache (2 bytes @ 0x60002CF8) - Data: 00 3F  returns 0x02 (0000ms, 0434ms total)
T0D70 005:576 JLINK_ReadMemEx(0x60002CFA, 0x0002 Bytes, ..., Flags = 0x02000000) -- Read from C cache (2 bytes @ 0x60002CFA) - Data: 2B D1  returns 0x02 (0000ms, 0434ms total)
T0D70 005:576 JLINK_ReadMemEx(0x60002CFA, 0x0002 Bytes, ..., Flags = 0x02000000) -- Read from C cache (2 bytes @ 0x60002CFA) - Data: 2B D1  returns 0x02 (0000ms, 0434ms total)
T0D70 005:576 JLINK_ReadMemEx(0x60002CFC, 0x003C Bytes, ..., Flags = 0x02000000) -- Read from C cache (60 bytes @ 0x60002CFC) - Data: 00 BF 00 BF 00 BF 00 BF 00 BF BF F3 4F 8F 00 BF ...  returns 0x3C (0000ms, 0434ms total)
T0D70 005:576 JLINK_ReadMemEx(0x60002CFC, 0x0002 Bytes, ..., Flags = 0x02000000) -- Read from C cache (2 bytes @ 0x60002CFC) - Data: 00 BF  returns 0x02 (0000ms, 0434ms total)
T0D70 005:576 JLINK_Step() -- Read from C cache (2 bytes @ 0x60002CFA) -- Simulated  returns 0x00 (0000ms, 0434ms total)
T0D70 005:576 JLINK_ReadReg(R15 (PC))  returns 0x60002CFC (0000ms, 0434ms total)
T0D70 005:577 JLINK_ReadReg(XPSR)  returns 0x61000000 (0000ms, 0435ms total)
T0D70 005:577 JLINK_ReadReg(R0)  returns 0x00020000 (0000ms, 0435ms total)
T0D70 005:577 JLINK_ReadReg(R1)  returns 0x20001768 (0000ms, 0435ms total)
T0D70 005:577 JLINK_ReadReg(R2)  returns 0x00000000 (0000ms, 0435ms total)
T0D70 005:577 JLINK_ReadReg(R3)  returns 0x60008769 (0000ms, 0435ms total)
T0D70 005:577 JLINK_ReadReg(R4)  returns 0x6000972C (0000ms, 0435ms total)
T0D70 005:577 JLINK_ReadReg(R5)  returns 0x6000972C (0000ms, 0435ms total)
T0D70 005:577 JLINK_ReadReg(R6)  returns 0x00200300 (0000ms, 0435ms total)
T0D70 005:577 JLINK_ReadReg(R7)  returns 0x000000F0 (0000ms, 0435ms total)
T0D70 005:577 JLINK_ReadReg(R8)  returns 0x401F4470 (0000ms, 0435ms total)
T0D70 005:577 JLINK_ReadReg(R9)  returns 0x20203A00 (0000ms, 0435ms total)
T0D70 005:577 JLINK_ReadReg(R10)  returns 0x04AF1BBF (0000ms, 0435ms total)
T0D70 005:577 JLINK_ReadReg(R11)  returns 0x00000000 (0000ms, 0435ms total)
T0D70 005:577 JLINK_ReadReg(R12)  returns 0x000001FE (0000ms, 0435ms total)
T0D70 005:577 JLINK_ReadReg(R13 (SP))  returns 0x2001FBF8 (0000ms, 0435ms total)
T0D70 005:577 JLINK_ReadReg(R14)  returns 0x60009049 (0000ms, 0435ms total)
T0D70 005:577 JLINK_ReadReg(R15 (PC))  returns 0x60002CFC (0000ms, 0435ms total)
T0D70 005:577 JLINK_ReadReg(XPSR)  returns 0x61000000 (0000ms, 0435ms total)
T0D70 005:577 JLINK_ReadReg(MSP)  returns 0x2001FBF8 (0000ms, 0435ms total)
T0D70 005:577 JLINK_ReadReg(PSP)  returns 0x2001FC00 (0000ms, 0435ms total)
T0D70 005:577 JLINK_ReadReg(CFBP)  returns 0x00000000 (0000ms, 0435ms total)
T0D70 005:577 JLINK_ReadReg(FPSCR)  returns 0x00000000 (0003ms, 0438ms total)
T0D70 005:580 JLINK_ReadReg(FPS0)  returns 0x00000000 (0000ms, 0438ms total)
T0D70 005:580 JLINK_ReadReg(FPS1)  returns 0x00000000 (0000ms, 0438ms total)
T0D70 005:580 JLINK_ReadReg(FPS2)  returns 0x00000000 (0000ms, 0438ms total)
T0D70 005:580 JLINK_ReadReg(FPS3)  returns 0x00000000 (0000ms, 0438ms total)
T0D70 005:580 JLINK_ReadReg(FPS4)  returns 0x00000000 (0000ms, 0438ms total)
T0D70 005:580 JLINK_ReadReg(FPS5)  returns 0x00000000 (0000ms, 0438ms total)
T0D70 005:580 JLINK_ReadReg(FPS6)  returns 0x00000000 (0000ms, 0438ms total)
T0D70 005:580 JLINK_ReadReg(FPS7)  returns 0x00000000 (0000ms, 0438ms total)
T0D70 005:580 JLINK_ReadReg(FPS8)  returns 0x00000000 (0000ms, 0438ms total)
T0D70 005:580 JLINK_ReadReg(FPS9)  returns 0x00000000 (0001ms, 0439ms total)
T0D70 005:581 JLINK_ReadReg(FPS10)  returns 0x00000000 (0000ms, 0439ms total)
T0D70 005:581 JLINK_ReadReg(FPS11)  returns 0x00000000 (0000ms, 0439ms total)
T0D70 005:581 JLINK_ReadReg(FPS12)  returns 0x00000000 (0000ms, 0439ms total)
T0D70 005:581 JLINK_ReadReg(FPS13)  returns 0x00000000 (0000ms, 0439ms total)
T0D70 005:581 JLINK_ReadReg(FPS14)  returns 0x00000000 (0000ms, 0439ms total)
T0D70 005:581 JLINK_ReadReg(FPS15)  returns 0xFFFFFFFF (0000ms, 0439ms total)
T0D70 005:581 JLINK_ReadReg(FPS16)  returns 0x00000000 (0000ms, 0439ms total)
T0D70 005:581 JLINK_ReadReg(FPS17)  returns 0x00000000 (0000ms, 0439ms total)
T0D70 005:581 JLINK_ReadReg(FPS18)  returns 0x00000000 (0000ms, 0439ms total)
T0D70 005:581 JLINK_ReadReg(FPS19)  returns 0x00000000 (0000ms, 0439ms total)
T0D70 005:581 JLINK_ReadReg(FPS20)  returns 0x00000000 (0000ms, 0439ms total)
T0D70 005:581 JLINK_ReadReg(FPS21)  returns 0x00000000 (0000ms, 0439ms total)
T0D70 005:581 JLINK_ReadReg(FPS22)  returns 0x00000000 (0000ms, 0439ms total)
T0D70 005:581 JLINK_ReadReg(FPS23)  returns 0x00000000 (0000ms, 0439ms total)
T0D70 005:581 JLINK_ReadReg(FPS24)  returns 0x00000000 (0000ms, 0439ms total)
T0D70 005:581 JLINK_ReadReg(FPS25)  returns 0x00000000 (0000ms, 0439ms total)
T0D70 005:581 JLINK_ReadReg(FPS26)  returns 0x00000000 (0000ms, 0439ms total)
T0D70 005:581 JLINK_ReadReg(FPS27)  returns 0x00000000 (0000ms, 0439ms total)
T0D70 005:581 JLINK_ReadReg(FPS28)  returns 0x00000000 (0000ms, 0439ms total)
T0D70 005:581 JLINK_ReadReg(FPS29)  returns 0x00000000 (0000ms, 0439ms total)
T0D70 005:581 JLINK_ReadReg(FPS30)  returns 0x00000000 (0000ms, 0439ms total)
T0D70 005:581 JLINK_ReadReg(FPS31)  returns 0xFFFFFFFF (0000ms, 0439ms total)
T3EB8 005:582 JLINK_ReadMemEx(0x2001FBFC, 0x0004 Bytes, ..., Flags = 0x02000000) -- CPU_ReadMem(64 bytes @ 0x2001FBC0) -- Updating C cache (64 bytes @ 0x2001FBC0) -- Read from C cache (4 bytes @ 0x2001FBFC) - Data: 49 90 00 60  returns 0x04 (0001ms, 0440ms total)
T3EB8 005:583 JLINK_ReadMemEx(0x2001FBF8, 0x0004 Bytes, ..., Flags = 0x02000000) -- Read from C cache (4 bytes @ 0x2001FBF8) - Data: 2C 97 00 60  returns 0x04 (0000ms, 0440ms total)
T3EB8 005:583 JLINK_ReadMemU32(0xE0001004, 0x0001 Items, ...) - Data: DB 5D 08 00  returns 1 (0000ms, 0440ms total)
T3EB8 005:588 JLINK_ReadMemEx(0x60002CEE, 0x0002 Bytes, ..., Flags = 0x02000000) -- Read from C cache (2 bytes @ 0x60002CEE) - Data: 60 48  returns 0x02 (0000ms, 0440ms total)
T3EB8 005:588 JLINK_ReadMemEx(0x60002CF0, 0x003C Bytes, ..., Flags = 0x02000000) -- Read from C cache (60 bytes @ 0x60002CF0) - Data: 00 68 00 F4 00 30 B0 F5 00 3F 2B D1 00 BF 00 BF ...  returns 0x3C (0000ms, 0440ms total)
T0D70 006:113 JLINK_ReadMemEx(0x60002CFC, 0x0002 Bytes, ..., Flags = 0x02000000) -- Read from C cache (2 bytes @ 0x60002CFC) - Data: 00 BF  returns 0x02 (0000ms, 0440ms total)
T0D70 006:113 JLINK_Step() -- Read from C cache (2 bytes @ 0x60002CFC) -- Simulated  returns 0x00 (0001ms, 0441ms total)
T0D70 006:114 JLINK_ReadReg(R15 (PC))  returns 0x60002CFE (0000ms, 0441ms total)
T0D70 006:114 JLINK_ReadReg(XPSR)  returns 0x61000000 (0000ms, 0441ms total)
T0D70 006:114 JLINK_ReadReg(R0)  returns 0x00020000 (0000ms, 0441ms total)
T0D70 006:114 JLINK_ReadReg(R1)  returns 0x20001768 (0000ms, 0441ms total)
T0D70 006:114 JLINK_ReadReg(R2)  returns 0x00000000 (0000ms, 0441ms total)
T0D70 006:114 JLINK_ReadReg(R3)  returns 0x60008769 (0000ms, 0441ms total)
T0D70 006:114 JLINK_ReadReg(R4)  returns 0x6000972C (0000ms, 0441ms total)
T0D70 006:114 JLINK_ReadReg(R5)  returns 0x6000972C (0000ms, 0441ms total)
T0D70 006:114 JLINK_ReadReg(R6)  returns 0x00200300 (0000ms, 0441ms total)
T0D70 006:114 JLINK_ReadReg(R7)  returns 0x000000F0 (0000ms, 0441ms total)
T0D70 006:114 JLINK_ReadReg(R8)  returns 0x401F4470 (0000ms, 0441ms total)
T0D70 006:114 JLINK_ReadReg(R9)  returns 0x20203A00 (0000ms, 0441ms total)
T0D70 006:114 JLINK_ReadReg(R10)  returns 0x04AF1BBF (0000ms, 0441ms total)
T0D70 006:114 JLINK_ReadReg(R11)  returns 0x00000000 (0000ms, 0441ms total)
T0D70 006:114 JLINK_ReadReg(R12)  returns 0x000001FE (0000ms, 0441ms total)
T0D70 006:115 JLINK_ReadReg(R13 (SP))  returns 0x2001FBF8 (0000ms, 0442ms total)
T0D70 006:115 JLINK_ReadReg(R14)  returns 0x60009049 (0000ms, 0442ms total)
T0D70 006:115 JLINK_ReadReg(R15 (PC))  returns 0x60002CFE (0000ms, 0442ms total)
T0D70 006:115 JLINK_ReadReg(XPSR)  returns 0x61000000 (0000ms, 0442ms total)
T0D70 006:115 JLINK_ReadReg(MSP)  returns 0x2001FBF8 (0000ms, 0442ms total)
T0D70 006:115 JLINK_ReadReg(PSP)  returns 0x2001FC00 (0000ms, 0442ms total)
T0D70 006:115 JLINK_ReadReg(CFBP)  returns 0x00000000 (0000ms, 0442ms total)
T0D70 006:115 JLINK_ReadReg(FPSCR)  returns 0x00000000 (0000ms, 0442ms total)
T0D70 006:115 JLINK_ReadReg(FPS0)  returns 0x00000000 (0000ms, 0442ms total)
T0D70 006:115 JLINK_ReadReg(FPS1)  returns 0x00000000 (0000ms, 0442ms total)
T0D70 006:115 JLINK_ReadReg(FPS2)  returns 0x00000000 (0000ms, 0442ms total)
T0D70 006:115 JLINK_ReadReg(FPS3)  returns 0x00000000 (0000ms, 0442ms total)
T0D70 006:115 JLINK_ReadReg(FPS4)  returns 0x00000000 (0000ms, 0442ms total)
T0D70 006:115 JLINK_ReadReg(FPS5)  returns 0x00000000 (0000ms, 0442ms total)
T0D70 006:115 JLINK_ReadReg(FPS6)  returns 0x00000000 (0000ms, 0442ms total)
T0D70 006:115 JLINK_ReadReg(FPS7)  returns 0x00000000 (0000ms, 0442ms total)
T0D70 006:115 JLINK_ReadReg(FPS8)  returns 0x00000000 (0000ms, 0442ms total)
T0D70 006:115 JLINK_ReadReg(FPS9)  returns 0x00000000 (0000ms, 0442ms total)
T0D70 006:115 JLINK_ReadReg(FPS10)  returns 0x00000000 (0000ms, 0442ms total)
T0D70 006:115 JLINK_ReadReg(FPS11)  returns 0x00000000 (0000ms, 0442ms total)
T0D70 006:115 JLINK_ReadReg(FPS12)  returns 0x00000000 (0000ms, 0442ms total)
T0D70 006:115 JLINK_ReadReg(FPS13)  returns 0x00000000 (0000ms, 0442ms total)
T0D70 006:115 JLINK_ReadReg(FPS14)  returns 0x00000000 (0000ms, 0442ms total)
T0D70 006:115 JLINK_ReadReg(FPS15)  returns 0xFFFFFFFF (0000ms, 0442ms total)
T0D70 006:115 JLINK_ReadReg(FPS16)  returns 0x00000000 (0000ms, 0442ms total)
T0D70 006:115 JLINK_ReadReg(FPS17)  returns 0x00000000 (0000ms, 0442ms total)
T0D70 006:115 JLINK_ReadReg(FPS18)  returns 0x00000000 (0001ms, 0443ms total)
T0D70 006:116 JLINK_ReadReg(FPS19)  returns 0x00000000 (0000ms, 0443ms total)
T0D70 006:116 JLINK_ReadReg(FPS20)  returns 0x00000000 (0000ms, 0443ms total)
T0D70 006:116 JLINK_ReadReg(FPS21)  returns 0x00000000 (0000ms, 0443ms total)
T0D70 006:116 JLINK_ReadReg(FPS22)  returns 0x00000000 (0000ms, 0443ms total)
T0D70 006:116 JLINK_ReadReg(FPS23)  returns 0x00000000 (0000ms, 0443ms total)
T0D70 006:116 JLINK_ReadReg(FPS24)  returns 0x00000000 (0000ms, 0443ms total)
T0D70 006:116 JLINK_ReadReg(FPS25)  returns 0x00000000 (0000ms, 0443ms total)
T0D70 006:116 JLINK_ReadReg(FPS26)  returns 0x00000000 (0000ms, 0443ms total)
T0D70 006:116 JLINK_ReadReg(FPS27)  returns 0x00000000 (0000ms, 0443ms total)
T0D70 006:116 JLINK_ReadReg(FPS28)  returns 0x00000000 (0000ms, 0443ms total)
T0D70 006:116 JLINK_ReadReg(FPS29)  returns 0x00000000 (0000ms, 0443ms total)
T0D70 006:116 JLINK_ReadReg(FPS30)  returns 0x00000000 (0000ms, 0443ms total)
T0D70 006:116 JLINK_ReadReg(FPS31)  returns 0xFFFFFFFF (0000ms, 0443ms total)
